# Engine RPM (100) = 3200
(1719672101.100000) can0 100#0C80000000000000
# Engine Coolant Temperature (101) = 92
(1719672101.200000) can0 101#5C00000000000000
# Engine Air Intake Temperature (102) = 34
(1719672101.300000) can0 102#2200000000000000
# Throttle Position (103) = 67
(1719672101.400000) can0 103#4300000000000000
# Air Fuel Ratio (104) = 14
(1719672101.500000) can0 104#008C000000000000
# Ignition Timing (105) = 16
(1719672101.600000) can0 105#00A0000000000000
# Ignition Correction (106) = -25
(1719672101.100000) can0 106#FF06000000000000
# Engine Load (107) = 72
(1719672101.200000) can0 107#4800000000000000
# Lambda (108) = 0.982
(1719672101.300000) can0 108#03D6000000000000
# Knock Count (109) = 3
(1719672101.400000) can0 109#0300000000000000
# Oil Pressure (200) = 61
(1719672101.700000) can0 200#3D00000000000000
# Oil Temperature (201) = 108
(1719672101.800000) can0 201#6C00000000000000
# Oil Level (202) = 88
(1719672101.900000) can0 202#5800000000000000
# Accusump Pressure (203) = 58
(1719672101.500000) can0 203#3A00000000000000
# Turbo Boost Pressure (300) = 40.0
(1719672102.000000) can0 300#0190000000000000
# Turbo Wastegate Duty (301) = 63
(1719672102.100000) can0 301#3F00000000000000
# Turbo Shaft Speed (302) = 120
(1719672102.200000) can0 302#0001000000000000
# Charge Air Temperature (303) = 41
(1719672101.600000) can0 303#2900000000000000
# Radiator Outlet Temperature (400) = 79
(1719672102.300000) can0 400#4F00000000000000
# Cooling Fan Speed (401) = 72
(1719672102.400000) can0 401#0048000000000000
# Water Pump Speed (402) = 2400
(1719672101.700000) can0 402#0960000000000000
# Cooling Fan Duty (403) = 68
(1719672101.800000) can0 403#4400000000000000
# Current Gear Position (500) = 3
(1719672102.500000) can0 500#0300000000000000
# Transmission Temperature (501) = 84
(1719672102.600000) can0 501#5400000000000000
# Clutch Position (502) = 37
(1719672101.900000) can0 502#2500000000000000
# Differential Temperature (503) = 89
(1719672102.000000) can0 503#5900000000000000
# Battery Voltage (600) = 15.0
(1719672102.700000) can0 600#0096000000000000
# Alternator Output (601) = 13.0
(1719672102.800000) can0 601#0082000000000000
# Alternator Voltage (601) = 160
(1719672102.100000) can0 601#0640000000000000
# Current Draw (602) = 184
(1719672102.200000) can0 602#0730000000000000
# Knock Alert Status (700) = 0
(1719672102.900000) can0 700#0000000000000000
# Low Oil Pressure Alert (701) = 0
(1719672103.000000) can0 701#0000000000000000
# Overboost Alert (702) = 0
(1719672103.100000) can0 702#0000000000000000
# Overheat Alert (703) = 0
(1719672102.300000) can0 703#0000000000000000
# Sensor Fault Alert (704) = 1
(1719672102.400000) can0 704#0100000000000000
# Front Left Wheel Speed (800) = 64
(1719672103.200000) can0 800#0280000000000000
# Front Right Wheel Speed (801) = 64
(1719672103.300000) can0 801#0280000000000000
# Rear Left Wheel Speed (802) = 67
(1719672103.400000) can0 802#029E000000000000
# Rear Right Wheel Speed (803) = 69
(1719672103.500000) can0 803#02B2000000000000
# Steering Angle (900) = 12
(1719672103.600000) can0 900#0078000000000000
# Yaw Rate (901) = 4
(1719672103.700000) can0 901#0028000000000000
# Lateral G Force (902) = 1
(1719672103.800000) can0 902#0064000000000000
# Longitudinal G Force (903) = -1
(1719672103.900000) can0 903#FF9C000000000000
# Brake Pressure Front (904) = 245
(1719672102.500000) can0 904#0992000000000000
# Brake Pressure Rear (905) = 198
(1719672102.600000) can0 905#07BC000000000000
# Alert Flags (A00) = 0
(1719672101.100000) can0 A00#0000000000000000
